               * d:\esim-workspace\decoder_3to8\decoder_3to8.cir
               Transient Analysis  Fri Oct 07 22:29:57  2022
--------------------------------------------------------------------------------
Index   time            a0              a1              a2              
--------------------------------------------------------------------------------
0	0.000000e+00	0.000000e+00	0.000000e+00	0.000000e+00	
1	1.000000e-12	0.000000e+00	0.000000e+00	0.000000e+00	
2	2.000000e-12	0.000000e+00	0.000000e+00	0.000000e+00	
3	4.000000e-12	0.000000e+00	0.000000e+00	0.000000e+00	
4	8.000000e-12	0.000000e+00	0.000000e+00	0.000000e+00	
5	1.600000e-11	0.000000e+00	0.000000e+00	0.000000e+00	
6	3.200000e-11	0.000000e+00	0.000000e+00	0.000000e+00	
7	6.400000e-11	0.000000e+00	0.000000e+00	0.000000e+00	
8	1.000000e-10	0.000000e+00	0.000000e+00	0.000000e+00	
9	1.064000e-10	0.000000e+00	0.000000e+00	0.000000e+00	
10	1.192000e-10	0.000000e+00	0.000000e+00	0.000000e+00	
11	1.448000e-10	0.000000e+00	0.000000e+00	0.000000e+00	
12	1.960000e-10	0.000000e+00	0.000000e+00	0.000000e+00	
13	2.984000e-10	0.000000e+00	0.000000e+00	0.000000e+00	
14	5.000000e-10	0.000000e+00	0.000000e+00	0.000000e+00	
15	5.204800e-10	1.024000e-02	1.024000e-02	1.024000e-02	
16	5.614400e-10	3.072000e-02	3.072000e-02	3.072000e-02	
17	6.433600e-10	7.168000e-02	7.168000e-02	7.168000e-02	
18	8.072000e-10	1.536000e-01	1.536000e-01	1.536000e-01	
19	1.134880e-09	3.174400e-01	3.174400e-01	3.174400e-01	
20	1.790240e-09	6.451200e-01	6.451200e-01	6.451200e-01	
21	3.100960e-09	1.300480e+00	1.300480e+00	1.300480e+00	
22	5.100960e-09	2.300480e+00	2.300480e+00	2.300480e+00	
23	5.105160e-09	2.302580e+00	2.302580e+00	2.302580e+00	
24	5.113560e-09	2.306780e+00	2.306780e+00	2.306780e+00	
25	5.130360e-09	2.315180e+00	2.315180e+00	2.315180e+00	
26	5.146235e-09	2.323117e+00	2.323117e+00	2.323117e+00	
27	5.177984e-09	2.338992e+00	2.338992e+00	2.338992e+00	
28	5.241482e-09	2.370741e+00	2.370741e+00	2.370741e+00	
29	5.368478e-09	2.434239e+00	2.434239e+00	2.434239e+00	
30	5.622470e-09	2.561235e+00	2.561235e+00	2.561235e+00	
31	6.100960e-09	2.800480e+00	2.800480e+00	2.800480e+00	
32	6.151758e-09	2.825879e+00	2.825879e+00	2.825879e+00	
33	6.253355e-09	2.876678e+00	2.876678e+00	2.876678e+00	
34	6.456549e-09	2.978274e+00	2.978274e+00	2.978274e+00	
35	6.862936e-09	3.181468e+00	3.181468e+00	3.181468e+00	
36	7.675711e-09	3.587856e+00	3.587856e+00	3.587856e+00	
37	9.301261e-09	4.400630e+00	4.400630e+00	4.400630e+00	
38	1.010000e-08	4.800000e+00	4.800000e+00	4.800000e+00	
39	1.014000e-08	4.820000e+00	4.820000e+00	4.820000e+00	
40	1.022000e-08	4.860000e+00	4.860000e+00	4.860000e+00	
41	1.038000e-08	4.940000e+00	4.940000e+00	4.940000e+00	
42	1.050000e-08	5.000000e+00	5.000000e+00	5.000000e+00	
43	1.053200e-08	5.000000e+00	5.000000e+00	5.000000e+00	
44	1.059600e-08	5.000000e+00	5.000000e+00	5.000000e+00	
45	1.072400e-08	5.000000e+00	5.000000e+00	5.000000e+00	
46	1.098000e-08	5.000000e+00	5.000000e+00	5.000000e+00	
47	1.149200e-08	5.000000e+00	5.000000e+00	5.000000e+00	
48	1.251600e-08	5.000000e+00	5.000000e+00	5.000000e+00	
49	1.456400e-08	5.000000e+00	5.000000e+00	5.000000e+00	
50	1.856400e-08	5.000000e+00	5.000000e+00	5.000000e+00	
51	2.256400e-08	5.000000e+00	5.000000e+00	5.000000e+00	
52	2.656400e-08	5.000000e+00	5.000000e+00	5.000000e+00	
53	3.010000e-08	5.000000e+00	5.000000e+00	5.000000e+00	
54	3.014000e-08	5.000000e+00	5.000000e+00	5.000000e+00	

Index   time            a0              a1              a2              
--------------------------------------------------------------------------------
55	3.022000e-08	5.000000e+00	5.000000e+00	5.000000e+00	
56	3.038000e-08	5.000000e+00	5.000000e+00	5.000000e+00	
57	3.050000e-08	5.000000e+00	5.000000e+00	5.000000e+00	
58	3.053200e-08	5.000000e+00	5.000000e+00	4.984000e+00	
59	3.059600e-08	5.000000e+00	5.000000e+00	4.952000e+00	
60	3.072400e-08	5.000000e+00	5.000000e+00	4.888000e+00	
61	3.098000e-08	5.000000e+00	5.000000e+00	4.760000e+00	
62	3.149200e-08	5.000000e+00	5.000000e+00	4.504000e+00	
63	3.251600e-08	5.000000e+00	5.000000e+00	3.992000e+00	
64	3.456400e-08	5.000000e+00	5.000000e+00	2.968000e+00	
65	3.856400e-08	5.000000e+00	5.000000e+00	9.680000e-01	
66	4.010000e-08	5.000000e+00	5.000000e+00	2.000000e-01	
67	4.014000e-08	5.000000e+00	5.000000e+00	1.800000e-01	
68	4.022000e-08	5.000000e+00	5.000000e+00	1.400000e-01	
69	4.038000e-08	5.000000e+00	5.000000e+00	6.000000e-02	
70	4.050000e-08	5.000000e+00	5.000000e+00	0.000000e+00	
71	4.053200e-08	5.000000e+00	5.000000e+00	0.000000e+00	
72	4.056400e-08	5.000000e+00	5.000000e+00	0.000000e+00	
73	4.057040e-08	5.000000e+00	5.000000e+00	0.000000e+00	
74	4.058320e-08	5.000000e+00	5.000000e+00	0.000000e+00	
75	4.060880e-08	5.000000e+00	5.000000e+00	0.000000e+00	
76	4.066000e-08	5.000000e+00	5.000000e+00	0.000000e+00	
77	4.076240e-08	5.000000e+00	5.000000e+00	0.000000e+00	
78	4.096720e-08	5.000000e+00	5.000000e+00	0.000000e+00	
79	4.137680e-08	5.000000e+00	5.000000e+00	0.000000e+00	
80	4.156400e-08	5.000000e+00	5.000000e+00	0.000000e+00	
81	4.164592e-08	5.000000e+00	5.000000e+00	0.000000e+00	
82	4.180976e-08	5.000000e+00	5.000000e+00	0.000000e+00	
83	4.213744e-08	5.000000e+00	5.000000e+00	0.000000e+00	
84	4.279280e-08	5.000000e+00	5.000000e+00	0.000000e+00	
85	4.410352e-08	5.000000e+00	5.000000e+00	0.000000e+00	
86	4.672496e-08	5.000000e+00	5.000000e+00	0.000000e+00	
87	5.050000e-08	5.000000e+00	5.000000e+00	0.000000e+00	
88	5.090000e-08	5.000000e+00	4.800000e+00	0.000000e+00	
89	5.170000e-08	5.000000e+00	4.400000e+00	0.000000e+00	
90	5.330000e-08	5.000000e+00	3.600000e+00	0.000000e+00	
91	5.650000e-08	5.000000e+00	2.000000e+00	0.000000e+00	
92	6.010000e-08	5.000000e+00	2.000000e-01	0.000000e+00	
93	6.014000e-08	5.000000e+00	1.800000e-01	0.000000e+00	
94	6.022000e-08	5.000000e+00	1.400000e-01	0.000000e+00	
95	6.038000e-08	5.000000e+00	6.000000e-02	0.000000e+00	
96	6.050000e-08	5.000000e+00	0.000000e+00	0.000000e+00	
97	6.053200e-08	5.000000e+00	0.000000e+00	1.600000e-02	
98	6.059600e-08	5.000000e+00	0.000000e+00	4.800000e-02	
99	6.072400e-08	5.000000e+00	0.000000e+00	1.120000e-01	
100	6.098000e-08	5.000000e+00	0.000000e+00	2.400000e-01	
101	6.149200e-08	5.000000e+00	0.000000e+00	4.960000e-01	
102	6.210000e-08	5.000000e+00	0.000000e+00	8.000000e-01	
103	6.220000e-08	5.000000e+00	0.000000e+00	8.500000e-01	
104	6.240000e-08	5.000000e+00	0.000000e+00	9.500000e-01	
105	6.280000e-08	5.000000e+00	0.000000e+00	1.150000e+00	
106	6.310000e-08	5.000000e+00	0.000000e+00	1.300000e+00	
107	6.318000e-08	5.000000e+00	0.000000e+00	1.340000e+00	
108	6.334000e-08	5.000000e+00	0.000000e+00	1.420000e+00	
109	6.366000e-08	5.000000e+00	0.000000e+00	1.580000e+00	
110	6.430000e-08	5.000000e+00	0.000000e+00	1.900000e+00	
111	6.480000e-08	5.000000e+00	0.000000e+00	2.150000e+00	
112	6.490000e-08	5.000000e+00	0.000000e+00	2.200000e+00	

Index   time            a0              a1              a2              
--------------------------------------------------------------------------------
113	6.510000e-08	5.000000e+00	0.000000e+00	2.300000e+00	
114	6.550000e-08	5.000000e+00	0.000000e+00	2.500000e+00	
115	6.580000e-08	5.000000e+00	0.000000e+00	2.650000e+00	
116	6.588000e-08	5.000000e+00	0.000000e+00	2.690000e+00	
117	6.604000e-08	5.000000e+00	0.000000e+00	2.770000e+00	
118	6.636000e-08	5.000000e+00	0.000000e+00	2.930000e+00	
119	6.700000e-08	5.000000e+00	0.000000e+00	3.250000e+00	
120	6.828000e-08	5.000000e+00	0.000000e+00	3.890000e+00	
121	7.010000e-08	5.000000e+00	0.000000e+00	4.800000e+00	
122	7.014000e-08	5.000000e+00	0.000000e+00	4.820000e+00	
123	7.022000e-08	5.000000e+00	0.000000e+00	4.860000e+00	
124	7.038000e-08	5.000000e+00	0.000000e+00	4.940000e+00	
125	7.050000e-08	5.000000e+00	0.000000e+00	5.000000e+00	
126	7.053200e-08	5.000000e+00	0.000000e+00	5.000000e+00	
127	7.059600e-08	5.000000e+00	0.000000e+00	5.000000e+00	
128	7.072400e-08	5.000000e+00	0.000000e+00	5.000000e+00	
129	7.098000e-08	5.000000e+00	0.000000e+00	5.000000e+00	
130	7.149200e-08	5.000000e+00	0.000000e+00	5.000000e+00	
131	7.251600e-08	5.000000e+00	0.000000e+00	5.000000e+00	
132	7.456400e-08	5.000000e+00	0.000000e+00	5.000000e+00	
133	7.856400e-08	5.000000e+00	0.000000e+00	5.000000e+00	
134	8.256400e-08	5.000000e+00	0.000000e+00	5.000000e+00	
135	8.656400e-08	5.000000e+00	0.000000e+00	5.000000e+00	
136	9.010000e-08	5.000000e+00	0.000000e+00	5.000000e+00	
137	9.014000e-08	5.000000e+00	0.000000e+00	5.000000e+00	
138	9.022000e-08	5.000000e+00	0.000000e+00	5.000000e+00	
139	9.038000e-08	5.000000e+00	0.000000e+00	5.000000e+00	
140	9.050000e-08	5.000000e+00	0.000000e+00	5.000000e+00	
141	9.053200e-08	4.984000e+00	0.000000e+00	4.984000e+00	
142	9.059600e-08	4.952000e+00	0.000000e+00	4.952000e+00	
143	9.072400e-08	4.888000e+00	0.000000e+00	4.888000e+00	
144	9.098000e-08	4.760000e+00	0.000000e+00	4.760000e+00	
145	9.149200e-08	4.504000e+00	0.000000e+00	4.504000e+00	
146	9.251600e-08	3.992000e+00	0.000000e+00	3.992000e+00	
147	9.456400e-08	2.968000e+00	0.000000e+00	2.968000e+00	
148	9.856400e-08	9.680000e-01	0.000000e+00	9.680000e-01	
149	1.001000e-07	2.000000e-01	0.000000e+00	2.000000e-01	
150	1.001400e-07	1.800000e-01	0.000000e+00	1.800000e-01	
151	1.002200e-07	1.400000e-01	0.000000e+00	1.400000e-01	
152	1.003800e-07	6.000000e-02	0.000000e+00	6.000000e-02	
153	1.005000e-07	0.000000e+00	0.000000e+00	0.000000e+00	
154	1.005320e-07	0.000000e+00	1.600000e-02	0.000000e+00	
155	1.005640e-07	0.000000e+00	3.200000e-02	0.000000e+00	
156	1.005704e-07	0.000000e+00	3.520000e-02	0.000000e+00	
157	1.005832e-07	0.000000e+00	4.160000e-02	0.000000e+00	
158	1.006088e-07	0.000000e+00	5.440000e-02	0.000000e+00	
159	1.006600e-07	0.000000e+00	8.000000e-02	0.000000e+00	
160	1.007624e-07	0.000000e+00	1.312000e-01	0.000000e+00	
161	1.009672e-07	0.000000e+00	2.336000e-01	0.000000e+00	
162	1.013768e-07	0.000000e+00	4.384000e-01	0.000000e+00	
163	1.015640e-07	0.000000e+00	5.320000e-01	0.000000e+00	
164	1.016459e-07	0.000000e+00	5.729600e-01	0.000000e+00	
165	1.018098e-07	0.000000e+00	6.548800e-01	0.000000e+00	
166	1.021374e-07	0.000000e+00	8.187200e-01	0.000000e+00	
167	1.027928e-07	0.000000e+00	1.146400e+00	0.000000e+00	
168	1.041035e-07	0.000000e+00	1.801760e+00	0.000000e+00	
169	1.047928e-07	0.000000e+00	2.146400e+00	0.000000e+00	
170	1.048928e-07	0.000000e+00	2.196400e+00	0.000000e+00	

Index   time            a0              a1              a2              
--------------------------------------------------------------------------------
171	1.050928e-07	0.000000e+00	2.296400e+00	0.000000e+00	
172	1.054928e-07	0.000000e+00	2.496400e+00	0.000000e+00	
173	1.057928e-07	0.000000e+00	2.646400e+00	0.000000e+00	
174	1.058728e-07	0.000000e+00	2.686400e+00	0.000000e+00	
175	1.060328e-07	0.000000e+00	2.766400e+00	0.000000e+00	
176	1.063528e-07	0.000000e+00	2.926400e+00	0.000000e+00	
177	1.069928e-07	0.000000e+00	3.246400e+00	0.000000e+00	
178	1.082728e-07	0.000000e+00	3.886400e+00	0.000000e+00	
179	1.105000e-07	0.000000e+00	5.000000e+00	0.000000e+00	
180	1.107560e-07	0.000000e+00	5.000000e+00	0.000000e+00	
181	1.112680e-07	0.000000e+00	5.000000e+00	0.000000e+00	
182	1.122920e-07	0.000000e+00	5.000000e+00	0.000000e+00	
183	1.143400e-07	0.000000e+00	5.000000e+00	0.000000e+00	
184	1.183400e-07	0.000000e+00	5.000000e+00	0.000000e+00	
185	1.201000e-07	0.000000e+00	5.000000e+00	0.000000e+00	
186	1.201400e-07	0.000000e+00	5.000000e+00	0.000000e+00	
187	1.202200e-07	0.000000e+00	5.000000e+00	0.000000e+00	
188	1.203800e-07	0.000000e+00	5.000000e+00	0.000000e+00	
189	1.205000e-07	0.000000e+00	5.000000e+00	0.000000e+00	
190	1.205320e-07	0.000000e+00	5.000000e+00	1.600000e-02	
191	1.205960e-07	0.000000e+00	5.000000e+00	4.800000e-02	
192	1.207240e-07	0.000000e+00	5.000000e+00	1.120000e-01	
193	1.209800e-07	0.000000e+00	5.000000e+00	2.400000e-01	
194	1.214920e-07	0.000000e+00	5.000000e+00	4.960000e-01	
195	1.225160e-07	0.000000e+00	5.000000e+00	1.008000e+00	
196	1.245160e-07	0.000000e+00	5.000000e+00	2.008000e+00	
197	1.246160e-07	0.000000e+00	5.000000e+00	2.058000e+00	
198	1.248160e-07	0.000000e+00	5.000000e+00	2.158000e+00	
199	1.252160e-07	0.000000e+00	5.000000e+00	2.358000e+00	
200	1.255160e-07	0.000000e+00	5.000000e+00	2.508000e+00	
201	1.255960e-07	0.000000e+00	5.000000e+00	2.548000e+00	
202	1.257560e-07	0.000000e+00	5.000000e+00	2.628000e+00	
203	1.260760e-07	0.000000e+00	5.000000e+00	2.788000e+00	
204	1.267160e-07	0.000000e+00	5.000000e+00	3.108000e+00	
205	1.279960e-07	0.000000e+00	5.000000e+00	3.748000e+00	
206	1.301000e-07	0.000000e+00	5.000000e+00	4.800000e+00	
207	1.301400e-07	0.000000e+00	5.000000e+00	4.820000e+00	
208	1.302200e-07	0.000000e+00	5.000000e+00	4.860000e+00	
209	1.303800e-07	0.000000e+00	5.000000e+00	4.940000e+00	
210	1.305000e-07	0.000000e+00	5.000000e+00	5.000000e+00	
211	1.305320e-07	0.000000e+00	5.000000e+00	5.000000e+00	
212	1.305960e-07	0.000000e+00	5.000000e+00	5.000000e+00	
213	1.307240e-07	0.000000e+00	5.000000e+00	5.000000e+00	
214	1.309800e-07	0.000000e+00	5.000000e+00	5.000000e+00	
215	1.314920e-07	0.000000e+00	5.000000e+00	5.000000e+00	
216	1.325160e-07	0.000000e+00	5.000000e+00	5.000000e+00	
217	1.345640e-07	0.000000e+00	5.000000e+00	5.000000e+00	
218	1.385640e-07	0.000000e+00	5.000000e+00	5.000000e+00	
219	1.425640e-07	0.000000e+00	5.000000e+00	5.000000e+00	
220	1.465640e-07	0.000000e+00	5.000000e+00	5.000000e+00	
221	1.501000e-07	0.000000e+00	5.000000e+00	5.000000e+00	
222	1.501400e-07	0.000000e+00	5.000000e+00	5.000000e+00	
223	1.502200e-07	0.000000e+00	5.000000e+00	5.000000e+00	
224	1.503800e-07	0.000000e+00	5.000000e+00	5.000000e+00	
225	1.505000e-07	0.000000e+00	5.000000e+00	5.000000e+00	
226	1.505320e-07	0.000000e+00	4.984000e+00	4.984000e+00	
227	1.505960e-07	0.000000e+00	4.952000e+00	4.952000e+00	
228	1.507240e-07	0.000000e+00	4.888000e+00	4.888000e+00	

Index   time            a0              a1              a2              
--------------------------------------------------------------------------------
229	1.509800e-07	0.000000e+00	4.760000e+00	4.760000e+00	
230	1.514920e-07	0.000000e+00	4.504000e+00	4.504000e+00	
231	1.525160e-07	0.000000e+00	3.992000e+00	3.992000e+00	
232	1.545640e-07	0.000000e+00	2.968000e+00	2.968000e+00	
233	1.585640e-07	0.000000e+00	9.680000e-01	9.680000e-01	
234	1.601000e-07	0.000000e+00	2.000000e-01	2.000000e-01	
235	1.601400e-07	0.000000e+00	1.800000e-01	1.800000e-01	
236	1.602200e-07	0.000000e+00	1.400000e-01	1.400000e-01	
237	1.603800e-07	0.000000e+00	6.000000e-02	6.000000e-02	
238	1.605000e-07	0.000000e+00	0.000000e+00	0.000000e+00	
239	1.605320e-07	0.000000e+00	0.000000e+00	0.000000e+00	
240	1.605640e-07	0.000000e+00	0.000000e+00	0.000000e+00	
241	1.605704e-07	0.000000e+00	0.000000e+00	0.000000e+00	
242	1.605832e-07	0.000000e+00	0.000000e+00	0.000000e+00	
243	1.606088e-07	0.000000e+00	0.000000e+00	0.000000e+00	
244	1.606600e-07	0.000000e+00	0.000000e+00	0.000000e+00	
245	1.607624e-07	0.000000e+00	0.000000e+00	0.000000e+00	
246	1.609672e-07	0.000000e+00	0.000000e+00	0.000000e+00	
247	1.613768e-07	0.000000e+00	0.000000e+00	0.000000e+00	
248	1.615640e-07	0.000000e+00	0.000000e+00	0.000000e+00	
249	1.616459e-07	0.000000e+00	0.000000e+00	0.000000e+00	
250	1.618098e-07	0.000000e+00	0.000000e+00	0.000000e+00	
251	1.621374e-07	0.000000e+00	0.000000e+00	0.000000e+00	
252	1.627928e-07	0.000000e+00	0.000000e+00	0.000000e+00	
253	1.641035e-07	0.000000e+00	0.000000e+00	0.000000e+00	
254	1.667250e-07	0.000000e+00	0.000000e+00	0.000000e+00	
255	1.707250e-07	0.000000e+00	0.000000e+00	0.000000e+00	
256	1.747250e-07	0.000000e+00	0.000000e+00	0.000000e+00	
257	1.787250e-07	0.000000e+00	0.000000e+00	0.000000e+00	
258	1.801000e-07	0.000000e+00	0.000000e+00	0.000000e+00	
259	1.801400e-07	0.000000e+00	0.000000e+00	0.000000e+00	
260	1.802200e-07	0.000000e+00	0.000000e+00	0.000000e+00	
261	1.803800e-07	0.000000e+00	0.000000e+00	0.000000e+00	
262	1.805000e-07	0.000000e+00	0.000000e+00	0.000000e+00	
263	1.805320e-07	1.600000e-02	0.000000e+00	1.600000e-02	
264	1.805960e-07	4.800000e-02	0.000000e+00	4.800000e-02	
265	1.807240e-07	1.120000e-01	0.000000e+00	1.120000e-01	
266	1.809800e-07	2.400000e-01	0.000000e+00	2.400000e-01	
267	1.814920e-07	4.960000e-01	0.000000e+00	4.960000e-01	
268	1.825160e-07	1.008000e+00	0.000000e+00	1.008000e+00	
269	1.845160e-07	2.008000e+00	0.000000e+00	2.008000e+00	
270	1.846160e-07	2.058000e+00	0.000000e+00	2.058000e+00	
271	1.848160e-07	2.158000e+00	0.000000e+00	2.158000e+00	
272	1.852160e-07	2.358000e+00	0.000000e+00	2.358000e+00	
273	1.855160e-07	2.508000e+00	0.000000e+00	2.508000e+00	
274	1.855960e-07	2.548000e+00	0.000000e+00	2.548000e+00	
275	1.857560e-07	2.628000e+00	0.000000e+00	2.628000e+00	
276	1.860760e-07	2.788000e+00	0.000000e+00	2.788000e+00	
277	1.867160e-07	3.108000e+00	0.000000e+00	3.108000e+00	
278	1.879960e-07	3.748000e+00	0.000000e+00	3.748000e+00	
279	1.901000e-07	4.800000e+00	0.000000e+00	4.800000e+00	
280	1.901400e-07	4.820000e+00	0.000000e+00	4.820000e+00	
281	1.902200e-07	4.860000e+00	0.000000e+00	4.860000e+00	
282	1.903800e-07	4.940000e+00	0.000000e+00	4.940000e+00	
283	1.905000e-07	5.000000e+00	0.000000e+00	5.000000e+00	
284	1.905320e-07	5.000000e+00	0.000000e+00	5.000000e+00	
285	1.905960e-07	5.000000e+00	0.000000e+00	5.000000e+00	
286	1.907240e-07	5.000000e+00	0.000000e+00	5.000000e+00	

Index   time            a0              a1              a2              
--------------------------------------------------------------------------------
287	1.909800e-07	5.000000e+00	0.000000e+00	5.000000e+00	
288	1.914920e-07	5.000000e+00	0.000000e+00	5.000000e+00	
289	1.925160e-07	5.000000e+00	0.000000e+00	5.000000e+00	
290	1.945640e-07	5.000000e+00	0.000000e+00	5.000000e+00	
291	1.985640e-07	5.000000e+00	0.000000e+00	5.000000e+00	
292	2.000000e-07	5.000000e+00	0.000000e+00	5.000000e+00	

               * d:\esim-workspace\decoder_3to8\decoder_3to8.cir
               Transient Analysis  Fri Oct 07 22:29:57  2022
--------------------------------------------------------------------------------
Index   time            clk             enb             net-_r1-pad2_   
--------------------------------------------------------------------------------
0	0.000000e+00	0.000000e+00	5.000000e+00	0.000000e+00	
1	1.000000e-12	0.000000e+00	5.000000e+00	0.000000e+00	
2	2.000000e-12	0.000000e+00	5.000000e+00	0.000000e+00	
3	4.000000e-12	0.000000e+00	5.000000e+00	0.000000e+00	
4	8.000000e-12	0.000000e+00	5.000000e+00	0.000000e+00	
5	1.600000e-11	0.000000e+00	5.000000e+00	0.000000e+00	
6	3.200000e-11	0.000000e+00	5.000000e+00	0.000000e+00	
7	6.400000e-11	0.000000e+00	5.000000e+00	0.000000e+00	
8	1.000000e-10	0.000000e+00	5.000000e+00	0.000000e+00	
9	1.064000e-10	3.200000e-03	5.000000e+00	1.600000e-03	
10	1.192000e-10	9.600000e-03	5.000000e+00	4.800000e-03	
11	1.448000e-10	2.240000e-02	5.000000e+00	1.120000e-02	
12	1.960000e-10	4.800000e-02	5.000000e+00	2.400000e-02	
13	2.984000e-10	9.920000e-02	5.000000e+00	4.960000e-02	
14	5.000000e-10	2.000000e-01	5.000000e+00	1.000000e-01	
15	5.204800e-10	2.102400e-01	5.000000e+00	1.051200e-01	
16	5.614400e-10	2.307200e-01	5.000000e+00	1.153600e-01	
17	6.433600e-10	2.716800e-01	5.000000e+00	1.358400e-01	
18	8.072000e-10	3.536000e-01	5.000000e+00	1.768000e-01	
19	1.134880e-09	5.174400e-01	5.000000e+00	2.587200e-01	
20	1.790240e-09	8.451200e-01	5.000000e+00	4.225600e-01	
21	3.100960e-09	1.500480e+00	5.000000e+00	7.502400e-01	
22	5.100960e-09	2.500480e+00	5.000000e+00	1.250240e+00	
23	5.105160e-09	2.502580e+00	5.000000e+00	1.251290e+00	
24	5.113560e-09	2.506780e+00	5.000000e+00	1.253390e+00	
25	5.130360e-09	2.515180e+00	5.000000e+00	1.257590e+00	
26	5.146235e-09	2.523117e+00	5.000000e+00	1.261559e+00	
27	5.177984e-09	2.538992e+00	5.000000e+00	1.269496e+00	
