                     * d:\esim-workspace\7thsnm\7thsnm.cir
                     Transient Analysis  Sat Oct 08 16:38:37  2022
--------------------------------------------------------------------------------
Index   time            v1#branch       v2#branch       v3#branch       
--------------------------------------------------------------------------------
0	0.000000e+00	-2.71631e-11	0.000000e+00	0.000000e+00	
1	1.000000e-12	4.706263e-05	6.146078e-05	1.006888e-05	
2	2.000000e-12	4.993843e-05	5.752926e-05	6.941806e-06	
3	4.000000e-12	5.066771e-05	5.370060e-05	3.962273e-06	
4	8.000000e-12	4.641830e-05	4.796435e-05	4.244634e-06	
5	1.600000e-11	4.226672e-05	2.911316e-05	1.580595e-06	
6	3.200000e-11	3.133286e-05	-2.69768e-05	1.973678e-06	
7	5.974222e-11	8.538873e-06	1.247152e-05	-1.19573e-06	
8	8.880375e-11	8.100801e-06	-1.64360e-05	9.420659e-07	
9	1.465726e-10	1.486750e-06	1.647787e-05	-9.74852e-07	
10	2.333326e-10	4.216503e-06	-1.54306e-05	9.470602e-07	
11	3.333326e-10	-1.06520e-06	1.673012e-05	-9.75376e-07	
12	4.333326e-10	2.422711e-06	-1.51633e-05	9.480479e-07	
13	5.333326e-10	-2.04360e-06	1.684187e-05	-9.76196e-07	
14	6.333326e-10	1.809035e-06	-1.50804e-05	9.490150e-07	
15	7.333326e-10	-2.39934e-06	1.689007e-05	-9.76712e-07	
16	8.333326e-10	1.593794e-06	-1.50578e-05	9.494069e-07	
17	9.333326e-10	-2.46681e-06	1.690247e-05	-9.77964e-07	
18	1.033333e-09	1.504700e-06	-1.50546e-05	9.510359e-07	
19	1.133333e-09	-2.47532e-06	1.690861e-05	-9.79938e-07	
20	1.233333e-09	1.456294e-06	-1.50571e-05	9.531329e-07	
21	1.333333e-09	-2.46127e-06	1.691217e-05	-9.82237e-07	
22	1.433333e-09	1.423809e-06	-1.50618e-05	9.554425e-07	
23	1.533333e-09	-2.43893e-06	1.691478e-05	-9.84657e-07	
24	1.633333e-09	1.397400e-06	-1.50675e-05	9.577743e-07	
25	1.733333e-09	-2.41380e-06	1.691719e-05	-9.87055e-07	
26	1.833333e-09	1.373478e-06	-1.50736e-05	9.600900e-07	
27	1.933333e-09	-2.38803e-06	1.691962e-05	-9.89434e-07	
28	2.033333e-09	1.350672e-06	-1.50800e-05	9.623814e-07	
29	2.133333e-09	-2.36235e-06	1.692219e-05	-9.91783e-07	
30	2.233333e-09	1.328501e-06	-1.50866e-05	9.646464e-07	
31	2.333333e-09	-2.33705e-06	1.692493e-05	-9.94105e-07	
32	2.433333e-09	1.306809e-06	-1.50934e-05	9.668868e-07	
33	2.533333e-09	-2.31217e-06	1.692785e-05	-9.96399e-07	
34	2.633333e-09	1.285552e-06	-1.51005e-05	9.691043e-07	
35	2.733333e-09	-2.28772e-06	1.693096e-05	-9.98669e-07	
36	2.833333e-09	1.264726e-06	-1.51077e-05	9.712997e-07	
37	2.933333e-09	-2.26369e-06	1.693426e-05	-1.00091e-06	
38	3.033333e-09	1.244334e-06	-1.51151e-05	9.734735e-07	
39	3.133333e-09	-2.24003e-06	1.693773e-05	-1.00314e-06	
40	3.233333e-09	1.224424e-06	-1.51227e-05	9.756364e-07	
41	3.333333e-09	-2.21676e-06	1.694135e-05	-1.00535e-06	
42	3.433333e-09	1.204933e-06	-1.51306e-05	9.777753e-07	
43	3.533333e-09	-2.19379e-06	1.694515e-05	-1.00754e-06	
44	3.633333e-09	1.185885e-06	-1.51387e-05	9.798828e-07	
45	3.733333e-09	-2.17110e-06	1.694909e-05	-1.00969e-06	
46	3.833333e-09	1.167297e-06	-1.51470e-05	9.819631e-07	
47	3.933333e-09	-2.14868e-06	1.695315e-05	-1.01183e-06	
48	4.033333e-09	1.149182e-06	-1.51557e-05	9.840166e-07	
49	4.133333e-09	-2.12650e-06	1.695733e-05	-1.01394e-06	
50	4.233333e-09	1.131556e-06	-1.51646e-05	9.860411e-07	
51	4.333333e-09	-2.10452e-06	1.696159e-05	-1.01605e-06	
52	4.433333e-09	1.114436e-06	-1.51739e-05	9.880321e-07	
53	4.533333e-09	-2.08271e-06	1.696591e-05	-1.01815e-06	
54	4.633333e-09	1.097847e-06	-1.51835e-05	9.899819e-07	

Index   time            v1#branch       v2#branch       v3#branch       
--------------------------------------------------------------------------------
55	4.733333e-09	-2.06103e-06	1.697025e-05	-1.02026e-06	
56	4.833333e-09	1.081819e-06	-1.51936e-05	9.918779e-07	
57	4.933333e-09	-2.03942e-06	1.697460e-05	-1.02240e-06	
58	5.033333e-09	1.066396e-06	-1.52040e-05	9.936983e-07	
59	5.133333e-09	-2.01781e-06	1.697890e-05	-1.02458e-06	
60	5.233333e-09	1.051635e-06	-1.52150e-05	9.954052e-07	
61	5.333333e-09	-1.99614e-06	1.698313e-05	-1.02687e-06	
62	5.433333e-09	1.037616e-06	-1.52266e-05	9.969292e-07	
63	5.533333e-09	-1.97427e-06	1.698725e-05	-1.02936e-06	
64	5.633333e-09	1.024426e-06	-1.52387e-05	9.981274e-07	
65	5.733333e-09	-1.95200e-06	1.699124e-05	-1.03223e-06	
66	5.833333e-09	1.012332e-06	-1.52514e-05	9.987400e-07	
67	5.933333e-09	-1.92911e-06	1.699512e-05	-1.03591e-06	
68	6.033333e-09	1.001697e-06	-1.52647e-05	9.981831e-07	
69	6.133333e-09	-1.90506e-06	1.699903e-05	-1.04133e-06	
70	6.233333e-09	9.932608e-07	-1.52783e-05	9.950676e-07	
71	6.333333e-09	-1.87873e-06	1.700340e-05	-1.05065e-06	
72	6.433333e-09	9.886392e-07	-1.52917e-05	9.861044e-07	
73	6.533333e-09	-1.84798e-06	1.700767e-05	-1.06884e-06	
74	6.633333e-09	9.592369e-07	-1.53181e-05	1.034339e-06	
75	6.733333e-09	-1.82823e-06	1.700260e-05	-1.04915e-06	
76	6.833333e-09	9.563990e-07	-1.53370e-05	1.021787e-06	
77	6.933333e-09	-1.79983e-06	1.700302e-05	-1.06014e-06	
78	7.033333e-09	9.539051e-07	-1.53571e-05	1.017246e-06	
79	7.133333e-09	-1.77102e-06	1.700195e-05	-1.06655e-06	
80	7.233333e-09	9.533170e-07	-1.53796e-05	1.015857e-06	
81	7.333333e-09	-1.74068e-06	1.699921e-05	-1.07090e-06	
82	7.433333e-09	9.552860e-07	-1.54046e-05	1.016025e-06	
83	7.533333e-09	-1.70826e-06	1.699486e-05	-1.07409e-06	
84	7.633333e-09	9.602081e-07	-1.54321e-05	1.017172e-06	
85	7.733333e-09	-1.67353e-06	1.698894e-05	-1.07647e-06	
86	7.833333e-09	9.682624e-07	-1.54622e-05	1.019084e-06	
87	7.933333e-09	-1.63646e-06	1.698151e-05	-1.07817e-06	
88	8.033333e-09	9.794604e-07	-1.54951e-05	1.021681e-06	
89	8.133333e-09	-1.59721e-06	1.697256e-05	-1.07927e-06	
90	8.233333e-09	9.936992e-07	-1.55310e-05	1.024936e-06	
91	8.333333e-09	-1.55607e-06	1.696203e-05	-1.07981e-06	
92	8.433333e-09	1.010752e-06	-1.55703e-05	1.028831e-06	
93	8.533333e-09	-1.51353e-06	1.695012e-05	-1.07985e-06	
94	8.633333e-09	1.030056e-06	-1.56127e-05	1.033304e-06	
95	8.733333e-09	-1.47037e-06	1.693745e-05	-1.07950e-06	
96	8.833333e-09	1.050018e-06	-1.56566e-05	1.038122e-06	
97	8.933333e-09	-1.42917e-06	1.692687e-05	-1.07915e-06	
98	9.033333e-09	1.068744e-06	-1.57005e-05	1.043047e-06	
99	9.133333e-09	-1.39202e-06	1.692051e-05	-1.07910e-06	
100	9.233333e-09	1.083616e-06	-1.57415e-05	1.047687e-06	
101	9.333333e-09	-1.36058e-06	1.691991e-05	-1.07959e-06	
102	9.433333e-09	1.093594e-06	-1.57791e-05	1.051890e-06	
103	9.533333e-09	-1.33486e-06	1.692491e-05	-1.08063e-06	
104	9.633333e-09	1.099167e-06	-1.58138e-05	1.055701e-06	
105	9.733333e-09	-1.31373e-06	1.693445e-05	-1.08209e-06	
106	9.833333e-09	1.101580e-06	-1.58467e-05	1.059246e-06	
107	9.933333e-09	-1.29582e-06	1.694745e-05	-1.08382e-06	
108	1.000000e-08	1.098463e-06	-1.58830e-05	1.063129e-06	
109	1.001000e-08	6.070530e-08	3.549069e-08	-4.81787e-07	
110	1.003000e-08	3.558332e-08	-2.56146e-08	-4.86711e-07	
111	1.007000e-08	6.183184e-08	3.430515e-08	-4.93912e-07	
112	1.015000e-08	6.154252e-08	-2.54183e-08	-4.97488e-07	

Index   time            v1#branch       v2#branch       v3#branch       
--------------------------------------------------------------------------------
113	1.025000e-08	1.014471e-07	3.421610e-08	-5.10492e-07	
114	1.035000e-08	9.177602e-08	-2.50534e-08	-5.17400e-07	
115	1.045000e-08	1.225846e-07	3.448138e-08	-5.31924e-07	
116	1.055000e-08	1.093940e-07	-2.44762e-08	-5.40562e-07	
117	1.065000e-08	1.389928e-07	3.485520e-08	-5.56756e-07	
118	1.075000e-08	1.257063e-07	-2.38353e-08	-5.67081e-07	
119	1.085000e-08	1.555384e-07	3.527176e-08	-5.84867e-07	
120	1.095000e-08	1.427957e-07	-2.31606e-08	-5.96772e-07	
121	1.105000e-08	1.731685e-07	3.572036e-08	-6.16070e-07	
122	1.115000e-08	1.611960e-07	-2.24513e-08	-6.29513e-07	
123	1.125000e-08	1.923640e-07	3.621257e-08	-6.50337e-07	
124	1.135000e-08	1.815205e-07	-2.16849e-08	-6.65382e-07	
125	1.145000e-08	2.139913e-07	3.678328e-08	-6.87815e-07	
126	1.155000e-08	2.049686e-07	-2.08126e-08	-7.04499e-07	
127	1.165000e-08	2.396404e-07	3.749653e-08	-7.28429e-07	
128	1.175000e-08	2.335525e-07	-1.97548e-08	-7.46353e-07	
129	1.185000e-08	2.717491e-07	3.844614e-08	-7.70955e-07	
130	1.195000e-08	2.700950e-07	-1.84070e-08	-7.88782e-07	
131	1.205000e-08	3.134580e-07	3.974184e-08	-8.12385e-07	
132	1.215000e-08	3.177253e-07	-1.66725e-08	-8.28091e-07	
133	1.225000e-08	3.671147e-07	4.143096e-08	-8.48443e-07	
134	1.235000e-08	3.769995e-07	-1.45983e-08	-8.60506e-07	
135	1.245000e-08	4.299774e-07	4.331144e-08	-8.77351e-07	
136	1.255000e-08	4.399787e-07	-1.26018e-08	-8.86833e-07	
137	1.265000e-08	4.878405e-07	4.474593e-08	-9.02630e-07	
138	1.275000e-08	4.869293e-07	-1.14616e-08	-9.12981e-07	
139	1.285000e-08	5.180839e-07	4.495572e-08	-9.31441e-07	
140	1.295000e-08	4.960695e-07	-1.18100e-08	-9.45963e-07	
141	1.305000e-08	5.032655e-07	4.355297e-08	-9.69566e-07	
142	1.315000e-08	4.566906e-07	-1.37541e-08	-9.89770e-07	
143	1.325000e-08	4.405126e-07	4.070269e-08	-1.01903e-06	
144	1.335000e-08	3.637043e-07	-1.73221e-08	-1.04488e-06	
145	1.345000e-08	3.095324e-07	3.574555e-08	-1.07588e-06	
146	1.355000e-08	2.658954e-07	-2.00974e-08	-1.09467e-06	
147	1.365000e-08	2.108872e-07	3.252504e-08	-1.14859e-06	
148	1.375000e-08	1.689348e-07	-2.29151e-08	-1.15452e-06	
149	1.385000e-08	1.194152e-07	2.973331e-08	-1.20927e-06	
150	1.395000e-08	8.609338e-08	-2.50778e-08	-1.20714e-06	
151	1.405000e-08	4.794998e-08	2.775422e-08	-1.25644e-06	
152	1.415000e-08	2.688723e-08	-2.63920e-08	-1.24700e-06	
153	1.425000e-08	1.362256e-09	2.658927e-08	-1.28991e-06	
154	1.435000e-08	-8.23399e-09	-2.69845e-08	-1.27439e-06	
155	1.445000e-08	-2.45459e-08	2.603929e-08	-1.31185e-06	
156	1.455000e-08	-2.45596e-08	-2.71067e-08	-1.29239e-06	
157	1.465000e-08	-3.34590e-08	2.582542e-08	-1.32631e-06	
158	1.475000e-08	-2.91346e-08	-2.69735e-08	-1.30407e-06	
159	1.485000e-08	-3.43551e-08	2.578886e-08	-1.33587e-06	
160	1.495000e-08	-2.79918e-08	-2.67349e-08	-1.31212e-06	
161	1.500000e-08	-3.22756e-08	2.571346e-08	-1.34116e-06	
162	1.501000e-08	8.315693e-10	1.473976e-10	-1.31420e-06	
163	1.503000e-08	6.633463e-09	-1.85874e-10	-1.32138e-06	
164	1.507000e-08	5.231338e-09	9.084288e-11	-1.32375e-06	
165	1.515000e-08	3.878977e-08	-5.43420e-10	-1.33453e-06	
166	1.525000e-08	3.659212e-08	-1.07449e-10	-1.33358e-06	
167	1.535000e-08	5.969611e-08	-5.15304e-10	-1.34122e-06	
168	1.545000e-08	4.949441e-08	2.641171e-11	-1.33790e-06	
169	1.555000e-08	6.871542e-08	-3.74354e-10	-1.34500e-06	
170	1.565000e-08	5.616674e-08	1.615392e-10	-1.34140e-06	

Index   time            v1#branch       v2#branch       v3#branch       
--------------------------------------------------------------------------------
171	1.575000e-08	7.399119e-08	-2.64440e-10	-1.34852e-06	
172	1.585000e-08	6.035005e-08	2.609093e-10	-1.34485e-06	
173	1.595000e-08	7.748603e-08	-1.86241e-10	-1.35198e-06	
174	1.605000e-08	6.321476e-08	3.338640e-10	-1.34820e-06	
175	1.615000e-08	7.997343e-08	-1.29118e-10	-1.35530e-06	
176	1.625000e-08	6.530313e-08	3.896151e-10	-1.35140e-06	
177	1.635000e-08	8.184752e-08	-8.57029e-11	-1.35844e-06	
178	1.645000e-08	6.690641e-08	4.338778e-10	-1.35442e-06	
179	1.655000e-08	8.332663e-08	-5.15934e-11	-1.36140e-06	
180	1.665000e-08	6.818967e-08	4.700636e-10	-1.35725e-06	
181	1.675000e-08	8.453724e-08	-2.41300e-11	-1.36418e-06	
182	1.685000e-08	6.925072e-08	5.002862e-10	-1.35992e-06	
183	1.695000e-08	8.555626e-08	-1.62404e-12	-1.36680e-06	
184	1.705000e-08	7.015076e-08	5.259291e-10	-1.36244e-06	
185	1.715000e-08	8.643333e-08	1.705813e-11	-1.36927e-06	
186	1.725000e-08	7.093047e-08	5.479483e-10	-1.36482e-06	
187	1.735000e-08	8.720256e-08	3.271653e-11	-1.37161e-06	
188	1.745000e-08	7.161871e-08	5.670357e-10	-1.36707e-06	
189	1.755000e-08	8.788893e-08	4.593938e-11	-1.37383e-06	
190	1.765000e-08	7.223725e-08	5.837104e-10	-1.36921e-06	
191	1.775000e-08	8.851195e-08	5.717316e-11	-1.37595e-06	
192	1.785000e-08	7.280367e-08	5.983736e-10	-1.37125e-06	
193	1.795000e-08	8.908797e-08	6.676518e-11	-1.37796e-06	
194	1.805000e-08	7.333332e-08	6.113417e-10	-1.37320e-06	
195	1.815000e-08	8.963193e-08	7.499115e-11	-1.37989e-06	
196	1.825000e-08	7.384094e-08	6.228698e-10	-1.37506e-06	
197	1.835000e-08	9.015902e-08	8.207394e-11	-1.38173e-06	
198	1.845000e-08	7.434244e-08	6.331668e-10	-1.37685e-06	
199	1.855000e-08	9.068668e-08	8.819737e-11	-1.38350e-06	
200	1.865000e-08	7.485734e-08	6.424083e-10	-1.37856e-06	
201	1.875000e-08	9.123754e-08	9.351681e-11	-1.38519e-06	
202	1.885000e-08	7.541228e-08	6.507455e-10	-1.38020e-06	
203	1.895000e-08	9.184386e-08	9.816826e-11	-1.38682e-06	
204	1.905000e-08	7.604669e-08	6.583143e-10	-1.38178e-06	
205	1.915000e-08	9.255445e-08	1.022760e-10	-1.38838e-06	
206	1.925000e-08	7.682113e-08	6.652415e-10	-1.38330e-06	
207	1.935000e-08	9.344485e-08	1.059585e-10	-1.38989e-06	
208	1.945000e-08	7.782943e-08	6.716510e-10	-1.38476e-06	
209	1.955000e-08	9.463158e-08	1.093352e-10	-1.39134e-06	
210	1.965000e-08	7.921616e-08	6.776754e-10	-1.38616e-06	
211	1.975000e-08	9.629527e-08	1.125538e-10	-1.39272e-06	
212	1.985000e-08	8.121058e-08	6.835147e-10	-1.38751e-06	
213	1.995000e-08	9.873534e-08	1.158972e-10	-1.39405e-06	
214	2.000000e-08	8.335100e-08	6.892269e-10	-1.38846e-06	
215	2.001000e-08	-2.26602e-07	-1.48409e-08	-5.03960e-07	
216	2.003000e-08	-2.58676e-07	-1.29023e-08	-3.09432e-07	
217	2.007000e-08	-2.56944e-07	-8.34487e-09	-2.02018e-07	
218	2.015000e-08	-1.47294e-07	-3.72963e-09	-1.00302e-07	
219	2.025000e-08	-1.27136e-07	-1.05445e-09	-3.22665e-08	
220	2.035000e-08	-4.46482e-08	-4.49265e-10	-2.41645e-08	
221	2.045000e-08	-6.22672e-08	1.975279e-10	-2.81183e-09	
222	2.055000e-08	-3.08479e-09	6.432549e-11	-1.19675e-08	
223	2.065000e-08	-3.75167e-08	4.784708e-10	3.770516e-09	
224	2.075000e-08	1.306667e-08	1.864952e-10	-8.85739e-09	
225	2.085000e-08	-2.85172e-08	5.796269e-10	6.003368e-09	
226	2.095000e-08	1.947449e-08	2.146968e-10	-7.93425e-09	
227	2.105000e-08	-2.54702e-08	6.281393e-10	6.942637e-09	
228	2.115000e-08	2.218281e-08	2.113886e-10	-7.74937e-09	

Index   time            v1#branch       v2#branch       v3#branch       
--------------------------------------------------------------------------------
229	2.125000e-08	-2.46153e-08	6.593670e-10	7.464186e-09	
230	2.135000e-08	2.347384e-08	1.958539e-10	-7.86339e-09	
231	2.145000e-08	-2.45553e-08	6.846575e-10	7.858220e-09	
232	2.155000e-08	2.423546e-08	1.762255e-10	-8.09129e-09	
233	2.165000e-08	-2.47685e-08	7.061655e-10	8.170710e-09	
234	2.175000e-08	2.468219e-08	1.566690e-10	-8.32304e-09	
235	2.185000e-08	-2.50095e-08	7.249902e-10	8.420957e-09	
236	2.195000e-08	2.502129e-08	1.375291e-10	-8.54547e-09	
237	2.205000e-08	-2.52588e-08	7.427533e-10	8.646913e-09	
238	2.215000e-08	2.530291e-08	1.189488e-10	-8.75647e-09	
239	2.225000e-08	-2.55057e-08	7.597680e-10	8.857409e-09	
240	2.235000e-08	2.555781e-08	1.008572e-10	-8.95909e-09	
241	2.245000e-08	-2.57447e-08	7.761877e-10	9.057446e-09	
242	2.255000e-08	2.579671e-08	8.326498e-11	-9.15408e-09	
243	2.265000e-08	-2.59749e-08	7.920797e-10	9.249416e-09	
244	2.275000e-08	2.602391e-08	6.616706e-11	-9.34216e-09	
245	2.285000e-08	-2.61960e-08	8.074717e-10	9.434382e-09	
246	2.295000e-08	2.624113e-08	4.955640e-11	-9.52375e-09	
247	2.305000e-08	-2.64083e-08	8.223809e-10	9.612894e-09	
248	2.315000e-08	2.644918e-08	3.342302e-11	-9.69913e-09	
249	2.325000e-08	-2.66118e-08	8.368213e-10	9.785283e-09	
250	2.335000e-08	2.664851e-08	1.775540e-11	-9.86854e-09	
251	2.345000e-08	-2.68069e-08	8.508058e-10	9.951788e-09	
252	2.355000e-08	2.683945e-08	2.541387e-12	-1.00322e-08	
253	2.365000e-08	-2.69937e-08	8.643471e-10	1.011260e-08	
254	2.375000e-08	2.702227e-08	-1.22313e-11	-1.01902e-08	
255	2.385000e-08	-2.71726e-08	8.774576e-10	1.026791e-08	
256	2.395000e-08	2.719722e-08	-2.65747e-11	-1.03428e-08	
257	2.405000e-08	-2.73437e-08	8.901492e-10	1.041786e-08	
258	2.415000e-08	2.736453e-08	-4.05009e-11	-1.04901e-08	
259	2.425000e-08	-2.75072e-08	9.024338e-10	1.056261e-08	
260	2.435000e-08	2.752442e-08	-5.40214e-11	-1.06324e-08	
261	2.445000e-08	-2.76635e-08	9.143229e-10	1.070231e-08	
262	2.455000e-08	2.767711e-08	-6.71476e-11	-1.07696e-08	
263	2.465000e-08	-2.78127e-08	9.258276e-10	1.083711e-08	
264	2.475000e-08	2.782281e-08	-7.98905e-11	-1.09020e-08	
265	2.485000e-08	-2.79550e-08	9.369588e-10	1.096715e-08	
266	2.495000e-08	2.796173e-08	-9.22608e-11	-1.10297e-08	
267	2.505000e-08	-2.80906e-08	9.477270e-10	1.109256e-08	
268	2.515000e-08	2.809407e-08	-1.04269e-10	-1.11529e-08	
269	2.525000e-08	-2.82197e-08	9.581425e-10	1.121348e-08	
270	2.535000e-08	2.822001e-08	-1.15925e-10	-1.12716e-08	
271	2.545000e-08	-2.83425e-08	9.682152e-10	1.133003e-08	
272	2.555000e-08	2.833975e-08	-1.27239e-10	-1.13860e-08	
273	2.565000e-08	-2.84592e-08	9.779548e-10	1.144235e-08	
274	2.575000e-08	2.845346e-08	-1.38220e-10	-1.14962e-08	
275	2.585000e-08	-2.85700e-08	9.873708e-10	1.155054e-08	
276	2.595000e-08	2.856133e-08	-1.48879e-10	-1.16024e-08	
277	2.605000e-08	-2.86750e-08	9.964723e-10	1.165473e-08	
278	2.615000e-08	2.866352e-08	-1.59222e-10	-1.17047e-08	
279	2.625000e-08	-2.87745e-08	1.005268e-09	1.175504e-08	
280	2.635000e-08	2.876021e-08	-1.69261e-10	-1.18031e-08	
281	2.645000e-08	-2.88685e-08	1.013767e-09	1.185157e-08	
282	2.655000e-08	2.885156e-08	-1.79002e-10	-1.18978e-08	
283	2.665000e-08	-2.89572e-08	1.021978e-09	1.194443e-08	
284	2.675000e-08	2.896693e-08	-1.88709e-10	-1.19951e-08	
285	2.685000e-08	-2.90547e-08	1.030195e-09	1.204148e-08	
286	2.695000e-08	2.904910e-08	-1.97916e-10	-1.20846e-08	

Index   time            v1#branch       v2#branch       v3#branch       
--------------------------------------------------------------------------------
287	2.705000e-08	-2.91448e-08	1.037947e-09	1.213030e-08	
288	2.715000e-08	2.913273e-08	-2.06949e-10	-1.21726e-08	
289	2.725000e-08	-2.92290e-08	1.045459e-09	1.221630e-08	
290	2.735000e-08	2.921309e-08	-2.15721e-10	-1.22573e-08	
291	2.745000e-08	-2.93081e-08	1.052728e-09	1.229928e-08	
292	2.755000e-08	2.928916e-08	-2.24237e-10	-1.23388e-08	
293	2.765000e-08	-2.93823e-08	1.059752e-09	1.237916e-08	
294	2.775000e-08	2.936074e-08	-2.32504e-10	-1.24172e-08	
295	2.785000e-08	-2.94519e-08	1.066536e-09	1.245596e-08	
296	2.795000e-08	2.942783e-08	-2.40531e-10	-1.24925e-08	
297	2.805000e-08	-2.95169e-08	1.073088e-09	1.252973e-08	
298	2.815000e-08	2.949053e-08	-2.48323e-10	-1.25648e-08	
299	2.825000e-08	-2.95480e-08	1.079152e-09	1.259413e-08	
300	2.835000e-08	2.953992e-08	-2.55639e-10	-1.26274e-08	
301	2.845000e-08	-2.96161e-08	1.085362e-09	1.266382e-08	
302	2.855000e-08	2.960014e-08	-2.63105e-10	-1.26967e-08	
303	2.865000e-08	-2.96801e-08	1.091363e-09	1.273189e-08	
304	2.875000e-08	2.965966e-08	-2.70366e-10	-1.27643e-08	
305	2.885000e-08	-2.97397e-08	1.097169e-09	1.279805e-08	
306	2.895000e-08	2.971625e-08	-2.77418e-10	-1.28295e-08	
307	2.905000e-08	-2.97953e-08	1.102778e-09	1.286190e-08	
308	2.915000e-08	2.976925e-08	-2.84266e-10	-1.28922e-08	
309	2.925000e-08	-2.98469e-08	1.108193e-09	1.292332e-08	
310	2.935000e-08	2.981851e-08	-2.90918e-10	-1.29524e-08	
311	2.945000e-08	-2.98947e-08	1.113421e-09	1.298228e-08	
312	2.955000e-08	2.986403e-08	-2.97381e-10	-1.30101e-08	
313	2.965000e-08	-2.99387e-08	1.118465e-09	1.303881e-08	
314	2.975000e-08	2.990588e-08	-3.03658e-10	-1.30654e-08	
315	2.985000e-08	-2.99791e-08	1.123331e-09	1.309296e-08	
316	2.995000e-08	2.994415e-08	-3.09756e-10	-1.31184e-08	
317	3.005000e-08	-3.00159e-08	1.128023e-09	1.314479e-08	
318	3.015000e-08	2.997893e-08	-3.15678e-10	-1.31691e-08	
319	3.025000e-08	-3.00493e-08	1.132546e-09	1.319435e-08	
320	3.035000e-08	3.001032e-08	-3.21429e-10	-1.32176e-08	
321	3.045000e-08	-3.00793e-08	1.136904e-09	1.324170e-08	
322	3.055000e-08	3.003840e-08	-3.27014e-10	-1.32638e-08	
323	3.065000e-08	-3.01061e-08	1.141102e-09	1.328691e-08	
324	3.075000e-08	3.006328e-08	-3.32437e-10	-1.33080e-08	
325	3.085000e-08	-3.01296e-08	1.145143e-09	1.333002e-08	
